T1B84 11015:266 SEGGER J-Link V6.46 Log File (0000ms, 54788ms total)
T1B84 11015:266 DLL Compiled: May 23 2019 17:49:56 (0000ms, 54788ms total)
T1B84 11015:266 Logging started @ 2019-10-30 15:37 (0000ms, 54788ms total)
T1B84 11015:266 JLINK_SetWarnOutHandler(...) (0000ms, 54788ms total)
T1B84 11015:266 JLINK_OpenEx(...)
Firmware: J-Link OB-SAM3U128-V2-NordicSemi compiled Jan  7 2019 14:07:15
Hardware: V1.00
S/N: 682832476
TELNET listener socket opened on port 19021WEBSRV 
Starting webserver (0083ms, 54871ms total)
T1B84 11015:266 WEBSRV Webserver running on local port 19080 (0083ms, 54871ms total)
T1B84 11015:266   returns O.K. (0083ms, 54871ms total)
T1B84 11015:349 JLINK_GetEmuCaps()  returns 0xB8EA5A33 (0000ms, 54871ms total)
T1B84 11015:350 JLINK_TIF_GetAvailable(...) (0000ms, 54871ms total)
T1B84 11015:350 JLINK_SetErrorOutHandler(...) (0000ms, 54871ms total)
T1B84 11015:350 JLINK_ExecCommand("ProjectFile = "C:\Users\Rawi\Documents\UiA\Høst2019\ELE217\nRF5_SDK_15.3.0_59ac345\nRF5_SDK_15.3.0_59ac345\examples\peripheral\ELE217_CON_RTX_LAB_2\JLinkSettings.ini"", ...).   returns 0x00 (0003ms, 54874ms total)
T1B84 11015:369 JLINK_ExecCommand("Device = nRF52832_xxAA", ...). Device "NRF52832_XXAA" selected.  returns 0x00 (0007ms, 54881ms total)
T1B84 11015:376 JLINK_ExecCommand("DisableConnectionTimeout", ...).   returns 0x01 (0000ms, 54881ms total)
T1B84 11015:376 JLINK_GetHardwareVersion()  returns 0x2710 (0000ms, 54881ms total)
T1B84 11015:376 JLINK_GetDLLVersion()  returns 64600 (0000ms, 54881ms total)
T1B84 11015:376 JLINK_GetFirmwareString(...) (0000ms, 54881ms total)
T1B84 11015:394 JLINK_GetDLLVersion()  returns 64600 (0000ms, 54881ms total)
T1B84 11015:394 JLINK_GetCompileDateTime() (0000ms, 54881ms total)
T1B84 11015:398 JLINK_GetFirmwareString(...) (0000ms, 54881ms total)
T1B84 11015:402 JLINK_GetHardwareVersion()  returns 0x2710 (0000ms, 54881ms total)
T1B84 11015:414 JLINK_TIF_Select(JLINKARM_TIF_SWD)  returns 0x00 (0001ms, 54882ms total)
T1B84 11015:415 JLINK_SetSpeed(5000) (0000ms, 54882ms total)
T1B84 11015:415 JLINK_GetId() >0x10B TIF>Found SW-DP with ID 0x2BA01477 >0x0D TIF> >0x28 TIF> >0x0D TIF> >0x28 TIF> >0x10B TIF>Found SW-DP with ID 0x2BA01477 >0x0D TIF> >0x28 TIF> >0x0D TIF> >0x28 TIF> >0x0D TIF> >0x28 TIF> >0x0D TIF> >0x28 TIF> >0x35 TIF> >0x0D TIF> >0x28 TIF>Scanning AP map to find all available APs >0x0D TIF> >0x28 TIF> >0x35 TIF> >0x35 TIF> >0x0D TIF> >0x28 TIF> >0x35 TIF> >0x35 TIF> >0x0D TIF> >0x28 TIF> >0x35 TIF> >0x35 TIF>AP[2]: Stopped AP scan as end of AP map has been reached
AP[0]: AHB-AP (IDR: 0x24770011)AP[1]: JTAG-AP (IDR: 0x02880000)Iterating through AP map to find AHB-AP to use >0x42 TIF> >0x28 TIF> >0x0D TIF> >0x28 TIF> >0x35 TIF> >0x35 TIF> >0x42 TIF> >0x28 TIF> >0x0D TIF> >0x28 TIF> >0x0D TIF> >0x28 TIF> >0x35 TIF> >0x35 TIF>AP[0]: Core foundAP[0]: AHB-AP ROM base: 0xE00FF000 >0x0D TIF> >0x28 TIF> >0x0D TIF> >0x28 TIF> >0x0D TIF> >0x28 TIF> >0x35 TIF> >0x35 TIF>CPUID register: 0x410FC241. Implementer code: 0x41 (ARM)Found Cortex-M4 r0p1, Little endian.
 -- Max. mem block: 0x00004740 -- CPU_ReadMem(4 bytes @ 0xE000EDF0) -- CPU_WriteMem(4 bytes @ 0xE000EDF0) -- CPU_ReadMem(4 bytes @ 0xE0002000)FPUnit: 6 code (BP) slots and 2 literal slots -- CPU_ReadMem(4 bytes @ 0xE000EDFC) -- CPU_WriteMem(4 bytes @ 0xE000EDFC) -- CPU_ReadMem(4 bytes @ 0xE0001000) -- CPU_WriteMem(4 bytes @ 0xE0001000) -- CPU_ReadMem(4 bytes @ 0xE000ED88) -- CPU_WriteMem(4 bytes @ 0xE000ED88) -- CPU_ReadMem(4 bytes @ 0xE000ED88) -- CPU_WriteMem(4 bytes @ 0xE000ED88)CoreSight components:
ROMTbl[0] @ E00FF000 -- CPU_ReadMem(16 bytes @ 0xE00FF000) -- CPU_ReadMem(16 bytes @ 0xE000EFF0) -- CPU_ReadMem(16 bytes @ 0xE000EFE0)ROMTbl[0][0]: E000E000, CID: B105E00D, PID: 000BB00C SCS-M7 -- CPU_ReadMem(16 bytes @ 0xE0001FF0) -- CPU_ReadMem(16 bytes @ 0xE0001FE0)ROMTbl[0][1]: E0001000, CID: B105E00D, PID: 003BB002 DWT -- CPU_ReadMem(16 bytes @ 0xE0002FF0) -- CPU_ReadMem(16 bytes @ 0xE0002FE0)ROMTbl[0][2]: E0002000, CID: B105E00D, PID: 002BB003 FPB -- CPU_ReadMem(16 bytes @ 0xE0000FF0)
 -- CPU_ReadMem(16 bytes @ 0xE0000FE0)ROMTbl[0][3]: E0000000, CID: B105E00D, PID: 003BB001 ITM -- CPU_ReadMem(16 bytes @ 0xE00FF010) -- CPU_ReadMem(16 bytes @ 0xE0040FF0) -- CPU_ReadMem(16 bytes @ 0xE0040FE0)ROMTbl[0][4]: E0040000, CID: B105900D, PID: 000BB9A1 TPIU -- CPU_ReadMem(16 bytes @ 0xE0041FF0) -- CPU_ReadMem(16 bytes @ 0xE0041FE0)ROMTbl[0][5]: E0041000, CID: B105900D, PID: 000BB925 ETM >0x35 TIF>  returns 0x2BA01477 (0234ms, 55116ms total)
T1B84 11015:649 JLINK_GetDLLVersion()  returns 64600 (0000ms, 55116ms total)
T1B84 11015:649 JLINK_CORE_GetFound()  returns 0xE0000FF (0000ms, 55116ms total)
T1B84 11015:649 JLINK_GetDebugInfo(0x100 = JLINKARM_ROM_TABLE_ADDR_INDEX) -- Value=0xE00FF000  returns 0x00 (0000ms, 55116ms total)
T1B84 11015:654 JLINK_GetDebugInfo(0x100 = JLINKARM_ROM_TABLE_ADDR_INDEX) -- Value=0xE00FF000  returns 0x00 (0000ms, 55116ms total)
T1B84 11015:654 JLINK_GetDebugInfo(0x101 = JLINKARM_DEBUG_INFO_ETM_ADDR_INDEX) -- Value=0xE0041000  returns 0x00 (0000ms, 55116ms total)
T1B84 11015:654 JLINK_ReadMemEx(0xE0041FD0, 0x0020 Bytes, ..., Flags = 0x02000004) -- CPU_ReadMem(32 bytes @ 0xE0041FD0) - Data: 04 00 00 00 00 00 00 00 00 00 00 00 00 00 00 00 ...  returns 0x20 (0001ms, 55117ms total)
T1B84 11015:655 JLINK_GetDebugInfo(0x102 = JLINKARM_DEBUG_INFO_MTB_ADDR_INDEX) -- Value=0x00000000  returns 0x00 (0000ms, 55117ms total)
T1B84 11015:655 JLINK_GetDebugInfo(0x103 = JLINKARM_DEBUG_INFO_TPIU_ADDR_INDEX) -- Value=0xE0040000  returns 0x00 (0000ms, 55117ms total)
T1B84 11015:655 JLINK_GetDebugInfo(0x104 = JLINKARM_DEBUG_INFO_ITM_ADDR_INDEX) -- Value=0xE0000000  returns 0x00 (0000ms, 55117ms total)
T1B84 11015:655 JLINK_GetDebugInfo(0x105 = JLINKARM_DEBUG_INFO_DWT_ADDR_INDEX) -- Value=0xE0001000  returns 0x00 (0000ms, 55117ms total)
T1B84 11015:655 JLINK_GetDebugInfo(0x106 = JLINKARM_DEBUG_INFO_FPB_ADDR_INDEX) -- Value=0xE0002000  returns 0x00 (0000ms, 55117ms total)
T1B84 11015:655 JLINK_GetDebugInfo(0x107 = JLINKARM_DEBUG_INFO_NVIC_ADDR_INDEX) -- Value=0xE000E000  returns 0x00 (0000ms, 55117ms total)
T1B84 11015:655 JLINK_GetDebugInfo(0x10C = JLINKARM_DEBUG_INFO_DBG_ADDR_INDEX) -- Value=0xE000EDF0  returns 0x00 (0000ms, 55117ms total)
T1B84 11015:655 JLINK_GetDebugInfo(0x01 = Unknown) -- Value=0x00000001  returns 0x00 (0000ms, 55117ms total)
T1B84 11015:655 JLINK_ReadMemU32(0xE000ED00, 0x0001 Items, ...) -- CPU_ReadMem(4 bytes @ 0xE000ED00) - Data: 41 C2 0F 41  returns 1 (0001ms, 55118ms total)
T1B84 11015:656 JLINK_GetDebugInfo(0x10F = JLINKARM_DEBUG_INFO_HAS_CORTEX_M_SECURITY_EXT_INDEX) -- Value=0x00000000  returns 0x00 (0000ms, 55118ms total)
T1B84 11015:656 JLINK_SetResetType(JLINKARM_CM3_RESET_TYPE_NORMAL)  returns JLINKARM_CM3_RESET_TYPE_NORMAL (0000ms, 55118ms total)
T1B84 11015:656 JLINK_Reset() -- CPU is running -- CPU_WriteMem(4 bytes @ 0xE000EDF0) -- CPU is running -- CPU_WriteMem(4 bytes @ 0xE000EDFC)Reset: Halt core after reset via DEMCR.VC_CORERESET. >0x35 TIF>Reset: Reset device via AIRCR.SYSRESETREQ. -- CPU is running -- CPU_WriteMem(4 bytes @ 0xE000ED0C) >0x0D TIF> >0x28 TIF> -- CPU_ReadMem(4 bytes @ 0xE000EDF0) -- CPU_ReadMem(4 bytes @ 0xE000EDF0) -- CPU is running -- CPU_WriteMem(4 bytes @ 0xE000EDF0) -- CPU is running
 -- CPU_WriteMem(4 bytes @ 0xE000EDFC) -- CPU_ReadMem(4 bytes @ 0xE000EDF0) -- CPU_WriteMem(4 bytes @ 0xE0002000) -- CPU_ReadMem(4 bytes @ 0xE000EDFC) -- CPU_ReadMem(4 bytes @ 0xE0001000) (0084ms, 55202ms total)
T1B84 11015:740 JLINK_Halt()  returns 0x00 (0000ms, 55202ms total)
T1B84 11015:740 JLINK_ReadMemU32(0xE000EDF0, 0x0001 Items, ...) -- CPU_ReadMem(4 bytes @ 0xE000EDF0) - Data: 03 00 03 00  returns 1 (0001ms, 55203ms total)
T1B84 11015:741 JLINK_WriteU32(0xE000EDF0, 0xA05F0003) -- CPU_WriteMem(4 bytes @ 0xE000EDF0)  returns 0 (0001ms, 55204ms total)
T1B84 11015:742 JLINK_WriteU32(0xE000EDFC, 0x01000000) -- CPU_WriteMem(4 bytes @ 0xE000EDFC)  returns 0 (0001ms, 55205ms total)
T1B84 11015:771 JLINK_GetHWStatus(...)  returns 0x00 (0000ms, 55205ms total)
T1B84 11015:793 JLINK_GetNumBPUnits(Type = 0xFFFFFF00)  returns 0x06 (0000ms, 55205ms total)
T1B84 11015:793 JLINK_GetNumBPUnits(Type = 0xF0)  returns 0x2000 (0000ms, 55205ms total)
T1B84 11015:793 JLINK_GetNumWPUnits()  returns 0x04 (0000ms, 55205ms total)
T1B84 11015:850 JLINK_GetSpeed()  returns 0x3E8 (0000ms, 55205ms total)
T1B84 11015:859 JLINK_ReadMemU32(0xE000E004, 0x0001 Items, ...) -- CPU_ReadMem(4 bytes @ 0xE000E004) - Data: 01 00 00 00  returns 1 (0001ms, 55206ms total)
T1B84 11015:860 JLINK_ReadMemU32(0xE000E004, 0x0001 Items, ...) -- CPU_ReadMem(4 bytes @ 0xE000E004) - Data: 01 00 00 00  returns 1 (0001ms, 55207ms total)
T1B84 11015:861 JLINK_WriteMemEx(0xE0001000, 0x001C Bytes, ..., Flags = 0x02000004) - Data: 01 00 00 00 00 00 00 00 00 00 00 00 00 00 00 00 ... -- CPU_WriteMem(28 bytes @ 0xE0001000)  returns 0x1C (0001ms, 55208ms total)
T1B84 11015:862 JLINK_Halt()  returns 0x00 (0000ms, 55208ms total)
T1B84 11015:862 JLINK_IsHalted()  returns TRUE (0000ms, 55208ms total)
T1B84 11015:865 JLINK_WriteMem(0x20000000, 0x06E4 Bytes, ...) - Data: 00 BE 0A E0 0D 78 2D 06 68 40 08 24 40 00 00 D3 ... -- CPU_WriteMem(1764 bytes @ 0x20000000)  returns 0x6E4 (0025ms, 55233ms total)
T1B84 11015:891 JLINK_WriteReg(R0, 0x00000000)  returns 0x00 (0000ms, 55233ms total)
T1B84 11015:891 JLINK_WriteReg(R1, 0x00B71B00)  returns 0x00 (0000ms, 55233ms total)
T1B84 11015:891 JLINK_WriteReg(R2, 0x00000001)  returns 0x00 (0000ms, 55233ms total)
T1B84 11015:891 JLINK_WriteReg(R3, 0x00000000)  returns 0x00 (0000ms, 55233ms total)
T1B84 11015:891 JLINK_WriteReg(R4, 0x00000000)  returns 0x00 (0000ms, 55233ms total)
T1B84 11015:891 JLINK_WriteReg(R5, 0x00000000)  returns 0x00 (0000ms, 55233ms total)
T1B84 11015:891 JLINK_WriteReg(R6, 0x00000000)  returns 0x00 (0000ms, 55233ms total)
T1B84 11015:891 JLINK_WriteReg(R7, 0x00000000)  returns 0x00 (0000ms, 55233ms total)
T1B84 11015:891 JLINK_WriteReg(R8, 0x00000000)  returns 0x00 (0000ms, 55233ms total)
T1B84 11015:891 JLINK_WriteReg(R9, 0x200006E0)  returns 0x00 (0000ms, 55233ms total)
T1B84 11015:891 JLINK_WriteReg(R10, 0x00000000)  returns 0x00 (0000ms, 55233ms total)
T1B84 11015:891 JLINK_WriteReg(R11, 0x00000000)  returns 0x00 (0000ms, 55233ms total)
T1B84 11015:891 JLINK_WriteReg(R12, 0x00000000)  returns 0x00 (0000ms, 55233ms total)
T1B84 11015:891 JLINK_WriteReg(R13 (SP), 0x20004000)  returns 0x00 (0000ms, 55233ms total)
T1B84 11015:891 JLINK_WriteReg(R14, 0x20000001)  returns 0x00 (0000ms, 55233ms total)
T1B84 11015:891 JLINK_WriteReg(R15 (PC), 0x20000020)  returns 0x00 (0000ms, 55233ms total)
T1B84 11015:891 JLINK_WriteReg(XPSR, 0x01000000)  returns 0x00 (0000ms, 55233ms total)
T1B84 11015:891 JLINK_WriteReg(MSP, 0x20004000)  returns 0x00 (0000ms, 55233ms total)
T1B84 11015:891 JLINK_WriteReg(PSP, 0x20004000)  returns 0x00 (0000ms, 55233ms total)
T1B84 11015:891 JLINK_WriteReg(CFBP, 0x00000000)  returns 0x00 (0000ms, 55233ms total)
T1B84 11015:891 JLINK_SetBPEx(Addr = 0x20000000, Type = 0xFFFFFFF2) -- CPU_ReadMem(2 bytes @ 0x20000000)  returns 0x00000001 (0001ms, 55234ms total)
T1B84 11015:892 JLINK_Go() -- CPU_WriteMem(2 bytes @ 0x20000000) -- CPU_ReadMem(4 bytes @ 0xE0001000) -- CPU_WriteMem(4 bytes @ 0xE0002008) -- CPU_WriteMem(4 bytes @ 0xE000200C) -- CPU_WriteMem(4 bytes @ 0xE0002010) -- CPU_WriteMem(4 bytes @ 0xE0002014) -- CPU_WriteMem(4 bytes @ 0xE0002018) -- CPU_WriteMem(4 bytes @ 0xE000201C) -- CPU_WriteMem(4 bytes @ 0xE0001004) (0012ms, 55246ms total)
T1B84 11015:904 JLINK_IsHalted() -- CPU_ReadMem(2 bytes @ 0x20000000)  returns TRUE (0008ms, 55254ms total)
T1B84 11015:912 JLINK_ReadReg(R15 (PC))  returns 0x20000000 (0000ms, 55246ms total)
T1B84 11015:912 JLINK_ClrBPEx(BPHandle = 0x00000001)  returns 0x00 (0000ms, 55246ms total)
T1B84 11015:912 JLINK_ReadReg(R0)  returns 0x00000000 (0000ms, 55246ms total)
T1B84 11015:912 JLINK_WriteReg(R0, 0x00000000)  returns 0x00 (0001ms, 55247ms total)
T1B84 11015:913 JLINK_WriteReg(R1, 0x00001000)  returns 0x00 (0000ms, 55247ms total)
T1B84 11015:913 JLINK_WriteReg(R2, 0x000000FF)  returns 0x00 (0000ms, 55247ms total)
T1B84 11015:913 JLINK_WriteReg(R3, 0x00000000)  returns 0x00 (0000ms, 55247ms total)
T1B84 11015:913 JLINK_WriteReg(R4, 0x00000000)  returns 0x00 (0000ms, 55247ms total)
T1B84 11015:913 JLINK_WriteReg(R5, 0x00000000)  returns 0x00 (0000ms, 55247ms total)
T1B84 11015:913 JLINK_WriteReg(R6, 0x00000000)  returns 0x00 (0000ms, 55247ms total)
T1B84 11015:913 JLINK_WriteReg(R7, 0x00000000)  returns 0x00 (0000ms, 55247ms total)
T1B84 11015:913 JLINK_WriteReg(R8, 0x00000000)  returns 0x00 (0000ms, 55247ms total)
T1B84 11015:913 JLINK_WriteReg(R9, 0x200006E0)  returns 0x00 (0000ms, 55247ms total)
T1B84 11015:913 JLINK_WriteReg(R10, 0x00000000)  returns 0x00 (0000ms, 55247ms total)
T1B84 11015:913 JLINK_WriteReg(R11, 0x00000000)  returns 0x00 (0000ms, 55247ms total)
T1B84 11015:913 JLINK_WriteReg(R12, 0x00000000)  returns 0x00 (0000ms, 55247ms total)
T1B84 11015:913 JLINK_WriteReg(R13 (SP), 0x20004000)  returns 0x00 (0000ms, 55247ms total)
T1B84 11015:913 JLINK_WriteReg(R14, 0x20000001)  returns 0x00 (0000ms, 55247ms total)
T1B84 11015:913 JLINK_WriteReg(R15 (PC), 0x20000344)  returns 0x00 (0000ms, 55247ms total)
T1B84 11015:913 JLINK_WriteReg(XPSR, 0x01000000)  returns 0x00 (0000ms, 55247ms total)
T1B84 11015:913 JLINK_WriteReg(MSP, 0x20004000)  returns 0x00 (0000ms, 55247ms total)
T1B84 11015:913 JLINK_WriteReg(PSP, 0x20004000)  returns 0x00 (0001ms, 55248ms total)
T1B84 11015:914 JLINK_WriteReg(CFBP, 0x00000000)  returns 0x00 (0000ms, 55248ms total)
T1B84 11015:914 JLINK_SetBPEx(Addr = 0x20000000, Type = 0xFFFFFFF2)  returns 0x00000002 (0000ms, 55248ms total)
T1B84 11015:914 JLINK_Go() -- CPU_ReadMem(4 bytes @ 0xE0001000) (0007ms, 55255ms total)
T1B84 11015:921 JLINK_IsHalted() -- CPU_ReadMem(2 bytes @ 0x20000000)  returns TRUE (0008ms, 55263ms total)
T1B84 11015:929 JLINK_ReadReg(R15 (PC))  returns 0x20000000 (0000ms, 55255ms total)
T1B84 11015:929 JLINK_ClrBPEx(BPHandle = 0x00000002)  returns 0x00 (0000ms, 55255ms total)
T1B84 11015:929 JLINK_ReadReg(R0)  returns 0x00000001 (0000ms, 55255ms total)
T1B84 11015:929 JLINK_WriteReg(R0, 0x00000000)  returns 0x00 (0000ms, 55255ms total)
T1B84 11015:929 JLINK_WriteReg(R1, 0x00001000)  returns 0x00 (0000ms, 55255ms total)
T1B84 11015:929 JLINK_WriteReg(R2, 0x000000FF)  returns 0x00 (0000ms, 55255ms total)
T1B84 11015:929 JLINK_WriteReg(R3, 0x00000000)  returns 0x00 (0000ms, 55255ms total)
T1B84 11015:929 JLINK_WriteReg(R4, 0x00000000)  returns 0x00 (0000ms, 55255ms total)
T1B84 11015:929 JLINK_WriteReg(R5, 0x00000000)  returns 0x00 (0000ms, 55255ms total)
T1B84 11015:929 JLINK_WriteReg(R6, 0x00000000)  returns 0x00 (0000ms, 55255ms total)
T1B84 11015:929 JLINK_WriteReg(R7, 0x00000000)  returns 0x00 (0000ms, 55255ms total)
T1B84 11015:929 JLINK_WriteReg(R8, 0x00000000)  returns 0x00 (0000ms, 55255ms total)
T1B84 11015:929 JLINK_WriteReg(R9, 0x200006E0)  returns 0x00 (0000ms, 55255ms total)
T1B84 11015:929 JLINK_WriteReg(R10, 0x00000000)  returns 0x00 (0000ms, 55255ms total)
T1B84 11015:929 JLINK_WriteReg(R11, 0x00000000)  returns 0x00 (0000ms, 55255ms total)
T1B84 11015:929 JLINK_WriteReg(R12, 0x00000000)  returns 0x00 (0000ms, 55255ms total)
T1B84 11015:929 JLINK_WriteReg(R13 (SP), 0x20004000)  returns 0x00 (0000ms, 55255ms total)
T1B84 11015:930 JLINK_WriteReg(R14, 0x20000001)  returns 0x00 (0000ms, 55256ms total)
T1B84 11015:930 JLINK_WriteReg(R15 (PC), 0x20000188)  returns 0x00 (0000ms, 55256ms total)
T1B84 11015:930 JLINK_WriteReg(XPSR, 0x01000000)  returns 0x00 (0000ms, 55256ms total)
T1B84 11015:930 JLINK_WriteReg(MSP, 0x20004000)  returns 0x00 (0000ms, 55256ms total)
T1B84 11015:930 JLINK_WriteReg(PSP, 0x20004000)  returns 0x00 (0000ms, 55256ms total)
T1B84 11015:930 JLINK_WriteReg(CFBP, 0x00000000)  returns 0x00 (0000ms, 55256ms total)
T1B84 11015:930 JLINK_SetBPEx(Addr = 0x20000000, Type = 0xFFFFFFF2)  returns 0x00000003 (0000ms, 55256ms total)
T1B84 11015:930 JLINK_Go() -- CPU_ReadMem(4 bytes @ 0xE0001000) (0007ms, 55263ms total)
T1B84 11015:937 JLINK_IsHalted()  returns FALSE (0001ms, 55264ms total)
T1B84 11016:147 JLINK_IsHalted() -- CPU_ReadMem(2 bytes @ 0x20000000)  returns TRUE (0008ms, 55271ms total)
T1B84 11016:155 JLINK_ReadReg(R15 (PC))  returns 0x20000000 (0000ms, 55263ms total)
T1B84 11016:155 JLINK_ClrBPEx(BPHandle = 0x00000003)  returns 0x00 (0000ms, 55263ms total)
T1B84 11016:155 JLINK_ReadReg(R0)  returns 0x00000000 (0000ms, 55263ms total)
T1B84 11016:156 JLINK_WriteReg(R0, 0x00001000)  returns 0x00 (0000ms, 55263ms total)
T1B84 11016:156 JLINK_WriteReg(R1, 0x00001000)  returns 0x00 (0000ms, 55263ms total)
T1B84 11016:156 JLINK_WriteReg(R2, 0x000000FF)  returns 0x00 (0000ms, 55263ms total)
T1B84 11016:156 JLINK_WriteReg(R3, 0x00000000)  returns 0x00 (0000ms, 55263ms total)
T1B84 11016:156 JLINK_WriteReg(R4, 0x00000000)  returns 0x00 (0000ms, 55263ms total)
T1B84 11016:156 JLINK_WriteReg(R5, 0x00000000)  returns 0x00 (0000ms, 55263ms total)
T1B84 11016:156 JLINK_WriteReg(R6, 0x00000000)  returns 0x00 (0000ms, 55263ms total)
T1B84 11016:156 JLINK_WriteReg(R7, 0x00000000)  returns 0x00 (0000ms, 55263ms total)
T1B84 11016:156 JLINK_WriteReg(R8, 0x00000000)  returns 0x00 (0000ms, 55263ms total)
T1B84 11016:156 JLINK_WriteReg(R9, 0x200006E0)  returns 0x00 (0000ms, 55263ms total)
T1B84 11016:156 JLINK_WriteReg(R10, 0x00000000)  returns 0x00 (0000ms, 55263ms total)
T1B84 11016:156 JLINK_WriteReg(R11, 0x00000000)  returns 0x00 (0000ms, 55263ms total)
T1B84 11016:156 JLINK_WriteReg(R12, 0x00000000)  returns 0x00 (0000ms, 55263ms total)
T1B84 11016:156 JLINK_WriteReg(R13 (SP), 0x20004000)  returns 0x00 (0000ms, 55263ms total)
T1B84 11016:156 JLINK_WriteReg(R14, 0x20000001)  returns 0x00 (0000ms, 55263ms total)
T1B84 11016:156 JLINK_WriteReg(R15 (PC), 0x20000344)  returns 0x00 (0000ms, 55263ms total)
T1B84 11016:156 JLINK_WriteReg(XPSR, 0x01000000)  returns 0x00 (0000ms, 55263ms total)
T1B84 11016:156 JLINK_WriteReg(MSP, 0x20004000)  returns 0x00 (0000ms, 55263ms total)
T1B84 11016:156 JLINK_WriteReg(PSP, 0x20004000)  returns 0x00 (0000ms, 55263ms total)
T1B84 11016:156 JLINK_WriteReg(CFBP, 0x00000000)  returns 0x00 (0001ms, 55264ms total)
T1B84 11016:157 JLINK_SetBPEx(Addr = 0x20000000, Type = 0xFFFFFFF2)  returns 0x00000004 (0000ms, 55264ms total)
T1B84 11016:157 JLINK_Go() -- CPU_ReadMem(4 bytes @ 0xE0001000) (0006ms, 55270ms total)
T1B84 11016:163 JLINK_IsHalted() -- CPU_ReadMem(2 bytes @ 0x20000000)  returns TRUE (0008ms, 55278ms total)
T1B84 11016:171 JLINK_ReadReg(R15 (PC))  returns 0x20000000 (0000ms, 55270ms total)
T1B84 11016:171 JLINK_ClrBPEx(BPHandle = 0x00000004)  returns 0x00 (0000ms, 55270ms total)
T1B84 11016:171 JLINK_ReadReg(R0)  returns 0x00000001 (0000ms, 55270ms total)
T1B84 11016:171 JLINK_WriteReg(R0, 0x00001000)  returns 0x00 (0000ms, 55270ms total)
T1B84 11016:171 JLINK_WriteReg(R1, 0x00001000)  returns 0x00 (0000ms, 55270ms total)
T1B84 11016:171 JLINK_WriteReg(R2, 0x000000FF)  returns 0x00 (0000ms, 55270ms total)
T1B84 11016:171 JLINK_WriteReg(R3, 0x00000000)  returns 0x00 (0000ms, 55270ms total)
T1B84 11016:171 JLINK_WriteReg(R4, 0x00000000)  returns 0x00 (0000ms, 55270ms total)
T1B84 11016:171 JLINK_WriteReg(R5, 0x00000000)  returns 0x00 (0000ms, 55270ms total)
T1B84 11016:171 JLINK_WriteReg(R6, 0x00000000)  returns 0x00 (0000ms, 55270ms total)
T1B84 11016:171 JLINK_WriteReg(R7, 0x00000000)  returns 0x00 (0000ms, 55270ms total)
T1B84 11016:171 JLINK_WriteReg(R8, 0x00000000)  returns 0x00 (0000ms, 55270ms total)
T1B84 11016:171 JLINK_WriteReg(R9, 0x200006E0)  returns 0x00 (0000ms, 55270ms total)
T1B84 11016:171 JLINK_WriteReg(R10, 0x00000000)  returns 0x00 (0000ms, 55270ms total)
T1B84 11016:171 JLINK_WriteReg(R11, 0x00000000)  returns 0x00 (0000ms, 55270ms total)
T1B84 11016:171 JLINK_WriteReg(R12, 0x00000000)  returns 0x00 (0000ms, 55270ms total)
T1B84 11016:171 JLINK_WriteReg(R13 (SP), 0x20004000)  returns 0x00 (0000ms, 55270ms total)
T1B84 11016:171 JLINK_WriteReg(R14, 0x20000001)  returns 0x00 (0000ms, 55270ms total)
T1B84 11016:171 JLINK_WriteReg(R15 (PC), 0x20000188)  returns 0x00 (0000ms, 55270ms total)
T1B84 11016:171 JLINK_WriteReg(XPSR, 0x01000000)  returns 0x00 (0000ms, 55270ms total)
T1B84 11016:171 JLINK_WriteReg(MSP, 0x20004000)  returns 0x00 (0000ms, 55270ms total)
T1B84 11016:171 JLINK_WriteReg(PSP, 0x20004000)  returns 0x00 (0000ms, 55270ms total)
T1B84 11016:171 JLINK_WriteReg(CFBP, 0x00000000)  returns 0x00 (0000ms, 55270ms total)
T1B84 11016:171 JLINK_SetBPEx(Addr = 0x20000000, Type = 0xFFFFFFF2)  returns 0x00000005 (0000ms, 55270ms total)
T1B84 11016:171 JLINK_Go() -- CPU_ReadMem(4 bytes @ 0xE0001000) (0007ms, 55277ms total)
T1B84 11016:178 JLINK_IsHalted()  returns FALSE (0001ms, 55278ms total)
T1B84 11016:185 JLINK_IsHalted() -- CPU_ReadMem(2 bytes @ 0x20000000)  returns TRUE (0008ms, 55285ms total)
T1B84 11016:193 JLINK_ReadReg(R15 (PC))  returns 0x20000000 (0000ms, 55277ms total)
T1B84 11016:193 JLINK_ClrBPEx(BPHandle = 0x00000005)  returns 0x00 (0000ms, 55277ms total)
T1B84 11016:193 JLINK_ReadReg(R0)  returns 0x00000000 (0000ms, 55277ms total)
T1B84 11016:194 JLINK_WriteReg(R0, 0x00002000)  returns 0x00 (0000ms, 55277ms total)
T1B84 11016:194 JLINK_WriteReg(R1, 0x00001000)  returns 0x00 (0000ms, 55277ms total)
T1B84 11016:194 JLINK_WriteReg(R2, 0x000000FF)  returns 0x00 (0000ms, 55277ms total)
T1B84 11016:194 JLINK_WriteReg(R3, 0x00000000)  returns 0x00 (0000ms, 55277ms total)
T1B84 11016:194 JLINK_WriteReg(R4, 0x00000000)  returns 0x00 (0000ms, 55277ms total)
T1B84 11016:194 JLINK_WriteReg(R5, 0x00000000)  returns 0x00 (0000ms, 55277ms total)
T1B84 11016:194 JLINK_WriteReg(R6, 0x00000000)  returns 0x00 (0000ms, 55277ms total)
T1B84 11016:194 JLINK_WriteReg(R7, 0x00000000)  returns 0x00 (0000ms, 55277ms total)
T1B84 11016:194 JLINK_WriteReg(R8, 0x00000000)  returns 0x00 (0000ms, 55277ms total)
T1B84 11016:194 JLINK_WriteReg(R9, 0x200006E0)  returns 0x00 (0000ms, 55277ms total)
T1B84 11016:194 JLINK_WriteReg(R10, 0x00000000)  returns 0x00 (0000ms, 55277ms total)
T1B84 11016:194 JLINK_WriteReg(R11, 0x00000000)  returns 0x00 (0000ms, 55277ms total)
T1B84 11016:194 JLINK_WriteReg(R12, 0x00000000)  returns 0x00 (0000ms, 55277ms total)
T1B84 11016:194 JLINK_WriteReg(R13 (SP), 0x20004000)  returns 0x00 (0000ms, 55277ms total)
T1B84 11016:194 JLINK_WriteReg(R14, 0x20000001)  returns 0x00 (0000ms, 55277ms total)
T1B84 11016:194 JLINK_WriteReg(R15 (PC), 0x20000344)  returns 0x00 (0000ms, 55277ms total)
T1B84 11016:194 JLINK_WriteReg(XPSR, 0x01000000)  returns 0x00 (0000ms, 55277ms total)
T1B84 11016:194 JLINK_WriteReg(MSP, 0x20004000)  returns 0x00 (0000ms, 55277ms total)
T1B84 11016:194 JLINK_WriteReg(PSP, 0x20004000)  returns 0x00 (0000ms, 55277ms total)
T1B84 11016:194 JLINK_WriteReg(CFBP, 0x00000000)  returns 0x00 (0000ms, 55277ms total)
T1B84 11016:194 JLINK_SetBPEx(Addr = 0x20000000, Type = 0xFFFFFFF2)  returns 0x00000006 (0000ms, 55277ms total)
T1B84 11016:194 JLINK_Go() -- CPU_ReadMem(4 bytes @ 0xE0001000) (0008ms, 55285ms total)
T1B84 11016:202 JLINK_IsHalted() -- CPU_ReadMem(2 bytes @ 0x20000000)  returns TRUE (0008ms, 55293ms total)
T1B84 11016:210 JLINK_ReadReg(R15 (PC))  returns 0x20000000 (0000ms, 55285ms total)
T1B84 11016:210 JLINK_ClrBPEx(BPHandle = 0x00000006)  returns 0x00 (0000ms, 55285ms total)
T1B84 11016:210 JLINK_ReadReg(R0)  returns 0x00000001 (0000ms, 55285ms total)
T1B84 11016:210 JLINK_WriteReg(R0, 0x00002000)  returns 0x00 (0000ms, 55285ms total)
T1B84 11016:210 JLINK_WriteReg(R1, 0x00001000)  returns 0x00 (0000ms, 55285ms total)
T1B84 11016:210 JLINK_WriteReg(R2, 0x000000FF)  returns 0x00 (0000ms, 55285ms total)
T1B84 11016:210 JLINK_WriteReg(R3, 0x00000000)  returns 0x00 (0000ms, 55285ms total)
T1B84 11016:210 JLINK_WriteReg(R4, 0x00000000)  returns 0x00 (0000ms, 55285ms total)
T1B84 11016:210 JLINK_WriteReg(R5, 0x00000000)  returns 0x00 (0000ms, 55285ms total)
T1B84 11016:210 JLINK_WriteReg(R6, 0x00000000)  returns 0x00 (0000ms, 55285ms total)
T1B84 11016:210 JLINK_WriteReg(R7, 0x00000000)  returns 0x00 (0000ms, 55285ms total)
T1B84 11016:210 JLINK_WriteReg(R8, 0x00000000)  returns 0x00 (0000ms, 55285ms total)
T1B84 11016:210 JLINK_WriteReg(R9, 0x200006E0)  returns 0x00 (0000ms, 55285ms total)
T1B84 11016:210 JLINK_WriteReg(R10, 0x00000000)  returns 0x00 (0000ms, 55285ms total)
T1B84 11016:210 JLINK_WriteReg(R11, 0x00000000)  returns 0x00 (0000ms, 55285ms total)
T1B84 11016:210 JLINK_WriteReg(R12, 0x00000000)  returns 0x00 (0000ms, 55285ms total)
T1B84 11016:210 JLINK_WriteReg(R13 (SP), 0x20004000)  returns 0x00 (0000ms, 55285ms total)
T1B84 11016:210 JLINK_WriteReg(R14, 0x20000001)  returns 0x00 (0000ms, 55285ms total)
T1B84 11016:210 JLINK_WriteReg(R15 (PC), 0x20000188)  returns 0x00 (0000ms, 55285ms total)
T1B84 11016:210 JLINK_WriteReg(XPSR, 0x01000000)  returns 0x00 (0000ms, 55285ms total)
T1B84 11016:210 JLINK_WriteReg(MSP, 0x20004000)  returns 0x00 (0001ms, 55286ms total)
T1B84 11016:211 JLINK_WriteReg(PSP, 0x20004000)  returns 0x00 (0000ms, 55286ms total)
T1B84 11016:211 JLINK_WriteReg(CFBP, 0x00000000)  returns 0x00 (0000ms, 55286ms total)
T1B84 11016:211 JLINK_SetBPEx(Addr = 0x20000000, Type = 0xFFFFFFF2)  returns 0x00000007 (0000ms, 55286ms total)
T1B84 11016:211 JLINK_Go() -- CPU_ReadMem(4 bytes @ 0xE0001000) (0007ms, 55293ms total)
T1B84 11016:218 JLINK_IsHalted()  returns FALSE (0001ms, 55294ms total)
T1B84 11016:237 JLINK_IsHalted() -- CPU_ReadMem(2 bytes @ 0x20000000)  returns TRUE (0007ms, 55300ms total)
T1B84 11016:244 JLINK_ReadReg(R15 (PC))  returns 0x20000000 (0000ms, 55293ms total)
T1B84 11016:244 JLINK_ClrBPEx(BPHandle = 0x00000007)  returns 0x00 (0000ms, 55293ms total)
T1B84 11016:244 JLINK_ReadReg(R0)  returns 0x00000000 (0000ms, 55293ms total)
T1B84 11016:245 JLINK_WriteReg(R0, 0x00003000)  returns 0x00 (0000ms, 55293ms total)
T1B84 11016:245 JLINK_WriteReg(R1, 0x00001000)  returns 0x00 (0000ms, 55293ms total)
T1B84 11016:245 JLINK_WriteReg(R2, 0x000000FF)  returns 0x00 (0000ms, 55293ms total)
T1B84 11016:245 JLINK_WriteReg(R3, 0x00000000)  returns 0x00 (0000ms, 55293ms total)
T1B84 11016:245 JLINK_WriteReg(R4, 0x00000000)  returns 0x00 (0000ms, 55293ms total)
T1B84 11016:245 JLINK_WriteReg(R5, 0x00000000)  returns 0x00 (0000ms, 55293ms total)
T1B84 11016:245 JLINK_WriteReg(R6, 0x00000000)  returns 0x00 (0000ms, 55293ms total)
T1B84 11016:245 JLINK_WriteReg(R7, 0x00000000)  returns 0x00 (0000ms, 55293ms total)
T1B84 11016:245 JLINK_WriteReg(R8, 0x00000000)  returns 0x00 (0000ms, 55293ms total)
T1B84 11016:245 JLINK_WriteReg(R9, 0x200006E0)  returns 0x00 (0000ms, 55293ms total)
T1B84 11016:245 JLINK_WriteReg(R10, 0x00000000)  returns 0x00 (0000ms, 55293ms total)
T1B84 11016:245 JLINK_WriteReg(R11, 0x00000000)  returns 0x00 (0001ms, 55294ms total)
T1B84 11016:246 JLINK_WriteReg(R12, 0x00000000)  returns 0x00 (0000ms, 55294ms total)
T1B84 11016:246 JLINK_WriteReg(R13 (SP), 0x20004000)  returns 0x00 (0000ms, 55294ms total)
T1B84 11016:246 JLINK_WriteReg(R14, 0x20000001)  returns 0x00 (0000ms, 55294ms total)
T1B84 11016:246 JLINK_WriteReg(R15 (PC), 0x20000344)  returns 0x00 (0000ms, 55294ms total)
T1B84 11016:246 JLINK_WriteReg(XPSR, 0x01000000)  returns 0x00 (0000ms, 55294ms total)
T1B84 11016:246 JLINK_WriteReg(MSP, 0x20004000)  returns 0x00 (0000ms, 55294ms total)
T1B84 11016:246 JLINK_WriteReg(PSP, 0x20004000)  returns 0x00 (0000ms, 55294ms total)
T1B84 11016:246 JLINK_WriteReg(CFBP, 0x00000000)  returns 0x00 (0000ms, 55294ms total)
T1B84 11016:246 JLINK_SetBPEx(Addr = 0x20000000, Type = 0xFFFFFFF2)  returns 0x00000008 (0000ms, 55294ms total)
T1B84 11016:246 JLINK_Go() -- CPU_ReadMem(4 bytes @ 0xE0001000) (0007ms, 55301ms total)
T1B84 11016:253 JLINK_IsHalted() -- CPU_ReadMem(2 bytes @ 0x20000000)  returns TRUE (0008ms, 55309ms total)
T1B84 11016:261 JLINK_ReadReg(R15 (PC))  returns 0x20000000 (0000ms, 55301ms total)
T1B84 11016:261 JLINK_ClrBPEx(BPHandle = 0x00000008)  returns 0x00 (0000ms, 55301ms total)
T1B84 11016:261 JLINK_ReadReg(R0)  returns 0x00000001 (0000ms, 55301ms total)
T1B84 11016:261 JLINK_WriteReg(R0, 0x00003000)  returns 0x00 (0000ms, 55301ms total)
T1B84 11016:261 JLINK_WriteReg(R1, 0x00001000)  returns 0x00 (0000ms, 55301ms total)
T1B84 11016:261 JLINK_WriteReg(R2, 0x000000FF)  returns 0x00 (0000ms, 55301ms total)
T1B84 11016:261 JLINK_WriteReg(R3, 0x00000000)  returns 0x00 (0000ms, 55301ms total)
T1B84 11016:261 JLINK_WriteReg(R4, 0x00000000)  returns 0x00 (0000ms, 55301ms total)
T1B84 11016:261 JLINK_WriteReg(R5, 0x00000000)  returns 0x00 (0000ms, 55301ms total)
T1B84 11016:261 JLINK_WriteReg(R6, 0x00000000)  returns 0x00 (0000ms, 55301ms total)
T1B84 11016:261 JLINK_WriteReg(R7, 0x00000000)  returns 0x00 (0001ms, 55302ms total)
T1B84 11016:262 JLINK_WriteReg(R8, 0x00000000)  returns 0x00 (0000ms, 55302ms total)
T1B84 11016:262 JLINK_WriteReg(R9, 0x200006E0)  returns 0x00 (0000ms, 55302ms total)
T1B84 11016:262 JLINK_WriteReg(R10, 0x00000000)  returns 0x00 (0000ms, 55302ms total)
T1B84 11016:262 JLINK_WriteReg(R11, 0x00000000)  returns 0x00 (0000ms, 55302ms total)
T1B84 11016:262 JLINK_WriteReg(R12, 0x00000000)  returns 0x00 (0000ms, 55302ms total)
T1B84 11016:262 JLINK_WriteReg(R13 (SP), 0x20004000)  returns 0x00 (0000ms, 55302ms total)
T1B84 11016:262 JLINK_WriteReg(R14, 0x20000001)  returns 0x00 (0000ms, 55302ms total)
T1B84 11016:262 JLINK_WriteReg(R15 (PC), 0x20000188)  returns 0x00 (0000ms, 55302ms total)
T1B84 11016:262 JLINK_WriteReg(XPSR, 0x01000000)  returns 0x00 (0000ms, 55302ms total)
T1B84 11016:262 JLINK_WriteReg(MSP, 0x20004000)  returns 0x00 (0000ms, 55302ms total)
T1B84 11016:262 JLINK_WriteReg(PSP, 0x20004000)  returns 0x00 (0000ms, 55302ms total)
T1B84 11016:262 JLINK_WriteReg(CFBP, 0x00000000)  returns 0x00 (0000ms, 55302ms total)
T1B84 11016:262 JLINK_SetBPEx(Addr = 0x20000000, Type = 0xFFFFFFF2)  returns 0x00000009 (0000ms, 55302ms total)
T1B84 11016:262 JLINK_Go() -- CPU_ReadMem(4 bytes @ 0xE0001000) (0007ms, 55309ms total)
T1B84 11016:269 JLINK_IsHalted()  returns FALSE (0001ms, 55310ms total)
T1B84 11016:272 JLINK_IsHalted() -- CPU_ReadMem(2 bytes @ 0x20000000)  returns TRUE (0008ms, 55317ms total)
T1B84 11016:280 JLINK_ReadReg(R15 (PC))  returns 0x20000000 (0000ms, 55309ms total)
T1B84 11016:280 JLINK_ClrBPEx(BPHandle = 0x00000009)  returns 0x00 (0000ms, 55309ms total)
T1B84 11016:280 JLINK_ReadReg(R0)  returns 0x00000000 (0000ms, 55309ms total)
T1B84 11016:281 JLINK_WriteReg(R0, 0x00004000)  returns 0x00 (0000ms, 55309ms total)
T1B84 11016:281 JLINK_WriteReg(R1, 0x00001000)  returns 0x00 (0000ms, 55309ms total)
T1B84 11016:281 JLINK_WriteReg(R2, 0x000000FF)  returns 0x00 (0000ms, 55309ms total)
T1B84 11016:281 JLINK_WriteReg(R3, 0x00000000)  returns 0x00 (0000ms, 55309ms total)
T1B84 11016:281 JLINK_WriteReg(R4, 0x00000000)  returns 0x00 (0000ms, 55309ms total)
T1B84 11016:281 JLINK_WriteReg(R5, 0x00000000)  returns 0x00 (0000ms, 55309ms total)
T1B84 11016:281 JLINK_WriteReg(R6, 0x00000000)  returns 0x00 (0000ms, 55309ms total)
T1B84 11016:281 JLINK_WriteReg(R7, 0x00000000)  returns 0x00 (0000ms, 55309ms total)
T1B84 11016:281 JLINK_WriteReg(R8, 0x00000000)  returns 0x00 (0000ms, 55309ms total)
T1B84 11016:281 JLINK_WriteReg(R9, 0x200006E0)  returns 0x00 (0000ms, 55309ms total)
T1B84 11016:281 JLINK_WriteReg(R10, 0x00000000)  returns 0x00 (0000ms, 55309ms total)
T1B84 11016:281 JLINK_WriteReg(R11, 0x00000000)  returns 0x00 (0000ms, 55309ms total)
T1B84 11016:281 JLINK_WriteReg(R12, 0x00000000)  returns 0x00 (0000ms, 55309ms total)
T1B84 11016:282 JLINK_WriteReg(R13 (SP), 0x20004000)  returns 0x00 (0000ms, 55309ms total)
T1B84 11016:282 JLINK_WriteReg(R14, 0x20000001)  returns 0x00 (0000ms, 55309ms total)
T1B84 11016:282 JLINK_WriteReg(R15 (PC), 0x20000344)  returns 0x00 (0000ms, 55309ms total)
T1B84 11016:282 JLINK_WriteReg(XPSR, 0x01000000)  returns 0x00 (0000ms, 55309ms total)
T1B84 11016:282 JLINK_WriteReg(MSP, 0x20004000)  returns 0x00 (0000ms, 55309ms total)
T1B84 11016:282 JLINK_WriteReg(PSP, 0x20004000)  returns 0x00 (0000ms, 55309ms total)
T1B84 11016:282 JLINK_WriteReg(CFBP, 0x00000000)  returns 0x00 (0000ms, 55309ms total)
T1B84 11016:282 JLINK_SetBPEx(Addr = 0x20000000, Type = 0xFFFFFFF2)  returns 0x0000000A (0000ms, 55309ms total)
T1B84 11016:282 JLINK_Go() -- CPU_ReadMem(4 bytes @ 0xE0001000) (0007ms, 55316ms total)
T1B84 11016:289 JLINK_IsHalted() -- CPU_ReadMem(2 bytes @ 0x20000000)  returns TRUE (0008ms, 55324ms total)
T1B84 11016:297 JLINK_ReadReg(R15 (PC))  returns 0x20000000 (0000ms, 55316ms total)
T1B84 11016:297 JLINK_ClrBPEx(BPHandle = 0x0000000A)  returns 0x00 (0000ms, 55316ms total)
T1B84 11016:297 JLINK_ReadReg(R0)  returns 0x00000001 (0000ms, 55316ms total)
T1B84 11016:297 JLINK_WriteReg(R0, 0x00004000)  returns 0x00 (0000ms, 55316ms total)
T1B84 11016:297 JLINK_WriteReg(R1, 0x00001000)  returns 0x00 (0000ms, 55316ms total)
T1B84 11016:297 JLINK_WriteReg(R2, 0x000000FF)  returns 0x00 (0000ms, 55316ms total)
T1B84 11016:298 JLINK_WriteReg(R3, 0x00000000)  returns 0x00 (0000ms, 55316ms total)
T1B84 11016:298 JLINK_WriteReg(R4, 0x00000000)  returns 0x00 (0000ms, 55316ms total)
T1B84 11016:298 JLINK_WriteReg(R5, 0x00000000)  returns 0x00 (0000ms, 55316ms total)
T1B84 11016:298 JLINK_WriteReg(R6, 0x00000000)  returns 0x00 (0000ms, 55316ms total)
T1B84 11016:298 JLINK_WriteReg(R7, 0x00000000)  returns 0x00 (0000ms, 55316ms total)
T1B84 11016:298 JLINK_WriteReg(R8, 0x00000000)  returns 0x00 (0000ms, 55316ms total)
T1B84 11016:298 JLINK_WriteReg(R9, 0x200006E0)  returns 0x00 (0000ms, 55316ms total)
T1B84 11016:298 JLINK_WriteReg(R10, 0x00000000)  returns 0x00 (0000ms, 55316ms total)
T1B84 11016:298 JLINK_WriteReg(R11, 0x00000000)  returns 0x00 (0000ms, 55316ms total)
T1B84 11016:298 JLINK_WriteReg(R12, 0x00000000)  returns 0x00 (0000ms, 55316ms total)
T1B84 11016:298 JLINK_WriteReg(R13 (SP), 0x20004000)  returns 0x00 (0000ms, 55316ms total)
T1B84 11016:298 JLINK_WriteReg(R14, 0x20000001)  returns 0x00 (0000ms, 55316ms total)
T1B84 11016:298 JLINK_WriteReg(R15 (PC), 0x20000188)  returns 0x00 (0000ms, 55316ms total)
T1B84 11016:298 JLINK_WriteReg(XPSR, 0x01000000)  returns 0x00 (0000ms, 55316ms total)
T1B84 11016:298 JLINK_WriteReg(MSP, 0x20004000)  returns 0x00 (0000ms, 55316ms total)
T1B84 11016:298 JLINK_WriteReg(PSP, 0x20004000)  returns 0x00 (0000ms, 55316ms total)
T1B84 11016:298 JLINK_WriteReg(CFBP, 0x00000000)  returns 0x00 (0000ms, 55316ms total)
T1B84 11016:298 JLINK_SetBPEx(Addr = 0x20000000, Type = 0xFFFFFFF2)  returns 0x0000000B (0000ms, 55316ms total)
T1B84 11016:298 JLINK_Go() -- CPU_ReadMem(4 bytes @ 0xE0001000) (0008ms, 55324ms total)
T1B84 11016:306 JLINK_IsHalted()  returns FALSE (0001ms, 55325ms total)
T1B84 11016:313 JLINK_IsHalted() -- CPU_ReadMem(2 bytes @ 0x20000000)  returns TRUE (0008ms, 55332ms total)
T1B84 11016:321 JLINK_ReadReg(R15 (PC))  returns 0x20000000 (0000ms, 55324ms total)
T1B84 11016:321 JLINK_ClrBPEx(BPHandle = 0x0000000B)  returns 0x00 (0000ms, 55324ms total)
T1B84 11016:321 JLINK_ReadReg(R0)  returns 0x00000000 (0000ms, 55324ms total)
T1B84 11016:322 JLINK_WriteReg(R0, 0x00005000)  returns 0x00 (0000ms, 55324ms total)
T1B84 11016:322 JLINK_WriteReg(R1, 0x00001000)  returns 0x00 (0001ms, 55325ms total)
T1B84 11016:323 JLINK_WriteReg(R2, 0x000000FF)  returns 0x00 (0000ms, 55325ms total)
T1B84 11016:323 JLINK_WriteReg(R3, 0x00000000)  returns 0x00 (0000ms, 55325ms total)
T1B84 11016:323 JLINK_WriteReg(R4, 0x00000000)  returns 0x00 (0000ms, 55325ms total)
T1B84 11016:323 JLINK_WriteReg(R5, 0x00000000)  returns 0x00 (0000ms, 55325ms total)
T1B84 11016:323 JLINK_WriteReg(R6, 0x00000000)  returns 0x00 (0000ms, 55325ms total)
T1B84 11016:323 JLINK_WriteReg(R7, 0x00000000)  returns 0x00 (0000ms, 55325ms total)
T1B84 11016:323 JLINK_WriteReg(R8, 0x00000000)  returns 0x00 (0000ms, 55325ms total)
T1B84 11016:323 JLINK_WriteReg(R9, 0x200006E0)  returns 0x00 (0000ms, 55325ms total)
T1B84 11016:323 JLINK_WriteReg(R10, 0x00000000)  returns 0x00 (0000ms, 55325ms total)
T1B84 11016:323 JLINK_WriteReg(R11, 0x00000000)  returns 0x00 (0000ms, 55325ms total)
T1B84 11016:323 JLINK_WriteReg(R12, 0x00000000)  returns 0x00 (0000ms, 55325ms total)
T1B84 11016:323 JLINK_WriteReg(R13 (SP), 0x20004000)  returns 0x00 (0000ms, 55325ms total)
T1B84 11016:323 JLINK_WriteReg(R14, 0x20000001)  returns 0x00 (0000ms, 55325ms total)
T1B84 11016:323 JLINK_WriteReg(R15 (PC), 0x20000344)  returns 0x00 (0000ms, 55325ms total)
T1B84 11016:323 JLINK_WriteReg(XPSR, 0x01000000)  returns 0x00 (0000ms, 55325ms total)
T1B84 11016:323 JLINK_WriteReg(MSP, 0x20004000)  returns 0x00 (0000ms, 55325ms total)
T1B84 11016:323 JLINK_WriteReg(PSP, 0x20004000)  returns 0x00 (0000ms, 55325ms total)
T1B84 11016:323 JLINK_WriteReg(CFBP, 0x00000000)  returns 0x00 (0000ms, 55325ms total)
T1B84 11016:323 JLINK_SetBPEx(Addr = 0x20000000, Type = 0xFFFFFFF2)  returns 0x0000000C (0001ms, 55326ms total)
T1B84 11016:324 JLINK_Go() -- CPU_ReadMem(4 bytes @ 0xE0001000) (0007ms, 55333ms total)
T1B84 11016:331 JLINK_IsHalted() -- CPU_ReadMem(2 bytes @ 0x20000000)  returns TRUE (0008ms, 55341ms total)
T1B84 11016:339 JLINK_ReadReg(R15 (PC))  returns 0x20000000 (0000ms, 55333ms total)
T1B84 11016:339 JLINK_ClrBPEx(BPHandle = 0x0000000C)  returns 0x00 (0000ms, 55333ms total)
T1B84 11016:339 JLINK_ReadReg(R0)  returns 0x00000001 (0000ms, 55333ms total)
T1B84 11016:339 JLINK_WriteReg(R0, 0x00005000)  returns 0x00 (0000ms, 55333ms total)
T1B84 11016:339 JLINK_WriteReg(R1, 0x00001000)  returns 0x00 (0000ms, 55333ms total)
T1B84 11016:339 JLINK_WriteReg(R2, 0x000000FF)  returns 0x00 (0000ms, 55333ms total)
T1B84 11016:339 JLINK_WriteReg(R3, 0x00000000)  returns 0x00 (0000ms, 55333ms total)
T1B84 11016:339 JLINK_WriteReg(R4, 0x00000000)  returns 0x00 (0000ms, 55333ms total)
T1B84 11016:339 JLINK_WriteReg(R5, 0x00000000)  returns 0x00 (0000ms, 55333ms total)
T1B84 11016:339 JLINK_WriteReg(R6, 0x00000000)  returns 0x00 (0000ms, 55333ms total)
T1B84 11016:339 JLINK_WriteReg(R7, 0x00000000)  returns 0x00 (0000ms, 55333ms total)
T1B84 11016:339 JLINK_WriteReg(R8, 0x00000000)  returns 0x00 (0000ms, 55333ms total)
T1B84 11016:339 JLINK_WriteReg(R9, 0x200006E0)  returns 0x00 (0000ms, 55333ms total)
T1B84 11016:339 JLINK_WriteReg(R10, 0x00000000)  returns 0x00 (0000ms, 55333ms total)
T1B84 11016:339 JLINK_WriteReg(R11, 0x00000000)  returns 0x00 (0000ms, 55333ms total)
T1B84 11016:339 JLINK_WriteReg(R12, 0x00000000)  returns 0x00 (0000ms, 55333ms total)
T1B84 11016:339 JLINK_WriteReg(R13 (SP), 0x20004000)  returns 0x00 (0000ms, 55333ms total)
T1B84 11016:339 JLINK_WriteReg(R14, 0x20000001)  returns 0x00 (0000ms, 55333ms total)
T1B84 11016:340 JLINK_WriteReg(R15 (PC), 0x20000188)  returns 0x00 (0000ms, 55333ms total)
T1B84 11016:340 JLINK_WriteReg(XPSR, 0x01000000)  returns 0x00 (0000ms, 55333ms total)
T1B84 11016:340 JLINK_WriteReg(MSP, 0x20004000)  returns 0x00 (0000ms, 55333ms total)
T1B84 11016:340 JLINK_WriteReg(PSP, 0x20004000)  returns 0x00 (0000ms, 55333ms total)
T1B84 11016:340 JLINK_WriteReg(CFBP, 0x00000000)  returns 0x00 (0000ms, 55333ms total)
T1B84 11016:340 JLINK_SetBPEx(Addr = 0x20000000, Type = 0xFFFFFFF2)  returns 0x0000000D (0000ms, 55333ms total)
T1B84 11016:340 JLINK_Go() -- CPU_ReadMem(4 bytes @ 0xE0001000) (0007ms, 55340ms total)
T1B84 11016:347 JLINK_IsHalted()  returns FALSE (0001ms, 55341ms total)
T1B84 11016:357 JLINK_IsHalted() -- CPU_ReadMem(2 bytes @ 0x20000000)  returns TRUE (0008ms, 55348ms total)
T1B84 11016:365 JLINK_ReadReg(R15 (PC))  returns 0x20000000 (0000ms, 55340ms total)
T1B84 11016:365 JLINK_ClrBPEx(BPHandle = 0x0000000D)  returns 0x00 (0000ms, 55340ms total)
T1B84 11016:365 JLINK_ReadReg(R0)  returns 0x00000000 (0000ms, 55340ms total)
T1B84 11016:365 JLINK_WriteReg(R0, 0x00000001)  returns 0x00 (0001ms, 55341ms total)
T1B84 11016:366 JLINK_WriteReg(R1, 0x00001000)  returns 0x00 (0000ms, 55341ms total)
T1B84 11016:366 JLINK_WriteReg(R2, 0x000000FF)  returns 0x00 (0000ms, 55341ms total)
T1B84 11016:366 JLINK_WriteReg(R3, 0x00000000)  returns 0x00 (0000ms, 55341ms total)
T1B84 11016:366 JLINK_WriteReg(R4, 0x00000000)  returns 0x00 (0000ms, 55341ms total)
T1B84 11016:366 JLINK_WriteReg(R5, 0x00000000)  returns 0x00 (0000ms, 55341ms total)
T1B84 11016:366 JLINK_WriteReg(R6, 0x00000000)  returns 0x00 (0000ms, 55341ms total)
T1B84 11016:366 JLINK_WriteReg(R7, 0x00000000)  returns 0x00 (0000ms, 55341ms total)
T1B84 11016:366 JLINK_WriteReg(R8, 0x00000000)  returns 0x00 (0000ms, 55341ms total)
T1B84 11016:366 JLINK_WriteReg(R9, 0x200006E0)  returns 0x00 (0000ms, 55341ms total)
T1B84 11016:366 JLINK_WriteReg(R10, 0x00000000)  returns 0x00 (0000ms, 55341ms total)
T1B84 11016:366 JLINK_WriteReg(R11, 0x00000000)  returns 0x00 (0000ms, 55341ms total)
T1B84 11016:366 JLINK_WriteReg(R12, 0x00000000)  returns 0x00 (0000ms, 55341ms total)
T1B84 11016:366 JLINK_WriteReg(R13 (SP), 0x20004000)  returns 0x00 (0000ms, 55341ms total)
T1B84 11016:366 JLINK_WriteReg(R14, 0x20000001)  returns 0x00 (0000ms, 55341ms total)
T1B84 11016:366 JLINK_WriteReg(R15 (PC), 0x20000090)  returns 0x00 (0000ms, 55341ms total)
T1B84 11016:366 JLINK_WriteReg(XPSR, 0x01000000)  returns 0x00 (0000ms, 55341ms total)
T1B84 11016:366 JLINK_WriteReg(MSP, 0x20004000)  returns 0x00 (0000ms, 55341ms total)
T1B84 11016:366 JLINK_WriteReg(PSP, 0x20004000)  returns 0x00 (0000ms, 55341ms total)
T1B84 11016:366 JLINK_WriteReg(CFBP, 0x00000000)  returns 0x00 (0000ms, 55341ms total)
T1B84 11016:366 JLINK_SetBPEx(Addr = 0x20000000, Type = 0xFFFFFFF2)  returns 0x0000000E (0000ms, 55341ms total)
T1B84 11016:366 JLINK_Go() -- CPU_ReadMem(4 bytes @ 0xE0001000) (0008ms, 55349ms total)
T1B84 11016:374 JLINK_IsHalted() -- CPU_ReadMem(2 bytes @ 0x20000000)  returns TRUE (0007ms, 55356ms total)
T1B84 11016:382 JLINK_ReadReg(R15 (PC))  returns 0x20000000 (0000ms, 55349ms total)
T1B84 11016:382 JLINK_ClrBPEx(BPHandle = 0x0000000E)  returns 0x00 (0000ms, 55349ms total)
T1B84 11016:382 JLINK_ReadReg(R0)  returns 0x00000000 (0000ms, 55349ms total)
T1B84 11016:453 JLINK_WriteMem(0x20000000, 0x06E4 Bytes, ...) - Data: 00 BE 0A E0 0D 78 2D 06 68 40 08 24 40 00 00 D3 ... -- CPU_WriteMem(1764 bytes @ 0x20000000)  returns 0x6E4 (0024ms, 55373ms total)
T1B84 11016:477 JLINK_WriteReg(R0, 0x00000000)  returns 0x00 (0000ms, 55373ms total)
T1B84 11016:477 JLINK_WriteReg(R1, 0x00B71B00)  returns 0x00 (0000ms, 55373ms total)
T1B84 11016:477 JLINK_WriteReg(R2, 0x00000002)  returns 0x00 (0000ms, 55373ms total)
T1B84 11016:477 JLINK_WriteReg(R3, 0x00000000)  returns 0x00 (0000ms, 55373ms total)
T1B84 11016:477 JLINK_WriteReg(R4, 0x00000000)  returns 0x00 (0000ms, 55373ms total)
T1B84 11016:477 JLINK_WriteReg(R5, 0x00000000)  returns 0x00 (0000ms, 55373ms total)
T1B84 11016:477 JLINK_WriteReg(R6, 0x00000000)  returns 0x00 (0000ms, 55373ms total)
T1B84 11016:477 JLINK_WriteReg(R7, 0x00000000)  returns 0x00 (0000ms, 55373ms total)
T1B84 11016:477 JLINK_WriteReg(R8, 0x00000000)  returns 0x00 (0000ms, 55373ms total)
T1B84 11016:477 JLINK_WriteReg(R9, 0x200006E0)  returns 0x00 (0000ms, 55373ms total)
T1B84 11016:477 JLINK_WriteReg(R10, 0x00000000)  returns 0x00 (0000ms, 55373ms total)
T1B84 11016:477 JLINK_WriteReg(R11, 0x00000000)  returns 0x00 (0000ms, 55373ms total)
T1B84 11016:477 JLINK_WriteReg(R12, 0x00000000)  returns 0x00 (0000ms, 55373ms total)
T1B84 11016:477 JLINK_WriteReg(R13 (SP), 0x20004000)  returns 0x00 (0000ms, 55373ms total)
T1B84 11016:477 JLINK_WriteReg(R14, 0x20000001)  returns 0x00 (0000ms, 55373ms total)
T1B84 11016:477 JLINK_WriteReg(R15 (PC), 0x20000020)  returns 0x00 (0000ms, 55373ms total)
T1B84 11016:477 JLINK_WriteReg(XPSR, 0x01000000)  returns 0x00 (0000ms, 55373ms total)
T1B84 11016:477 JLINK_WriteReg(MSP, 0x20004000)  returns 0x00 (0000ms, 55373ms total)
T1B84 11016:477 JLINK_WriteReg(PSP, 0x20004000)  returns 0x00 (0000ms, 55373ms total)
T1B84 11016:477 JLINK_WriteReg(CFBP, 0x00000000)  returns 0x00 (0000ms, 55373ms total)
T1B84 11016:477 JLINK_SetBPEx(Addr = 0x20000000, Type = 0xFFFFFFF2) -- CPU_ReadMem(2 bytes @ 0x20000000)  returns 0x0000000F (0001ms, 55374ms total)
T1B84 11016:478 JLINK_Go() -- CPU_WriteMem(2 bytes @ 0x20000000) -- CPU_ReadMem(4 bytes @ 0xE0001000) (0008ms, 55382ms total)
T1B84 11016:486 JLINK_IsHalted() -- CPU_ReadMem(2 bytes @ 0x20000000)  returns TRUE (0008ms, 55390ms total)
T1B84 11016:494 JLINK_ReadReg(R15 (PC))  returns 0x20000000 (0000ms, 55382ms total)
T1B84 11016:494 JLINK_ClrBPEx(BPHandle = 0x0000000F)  returns 0x00 (0000ms, 55382ms total)
T1B84 11016:494 JLINK_ReadReg(R0)  returns 0x00000000 (0000ms, 55382ms total)
T1B84 11016:495 JLINK_WriteMem(0x200006F4, 0x010C Bytes, ...) - Data: E8 69 00 20 09 05 00 00 11 05 00 00 13 05 00 00 ... -- CPU_WriteMem(268 bytes @ 0x200006F4)  returns 0x10C (0004ms, 55386ms total)
T1B84 11016:499 JLINK_WriteMem(0x20000800, 0x0400 Bytes, ...) - Data: 00 00 00 00 00 00 00 00 00 00 00 00 00 00 00 00 ... -- CPU_WriteMem(1024 bytes @ 0x20000800)  returns 0x400 (0014ms, 55400ms total)
T1B84 11016:514 JLINK_WriteMem(0x20000C00, 0x0400 Bytes, ...) - Data: 09 48 00 47 FE E7 FE E7 FE E7 FE E7 FE E7 FE E7 ... -- CPU_WriteMem(1024 bytes @ 0x20000C00)  returns 0x400 (0014ms, 55414ms total)
T1B84 11016:528 JLINK_WriteMem(0x20001000, 0x0400 Bytes, ...) - Data: 15 A6 14 D0 01 1E 72 F1 00 01 06 DA 00 23 D0 EB ... -- CPU_WriteMem(1024 bytes @ 0x20001000)  returns 0x400 (0015ms, 55429ms total)
T1B84 11016:543 JLINK_WriteMem(0x20001400, 0x02F4 Bytes, ...) - Data: 07 E0 D4 E9 01 21 18 F8 05 00 90 47 20 6A 40 1C ... -- CPU_WriteMem(756 bytes @ 0x20001400)  returns 0x2F4 (0011ms, 55440ms total)
T1B84 11016:554 JLINK_WriteReg(R0, 0x00000000)  returns 0x00 (0000ms, 55440ms total)
T1B84 11016:554 JLINK_WriteReg(R1, 0x00001000)  returns 0x00 (0000ms, 55440ms total)
T1B84 11016:554 JLINK_WriteReg(R2, 0x200006F4)  returns 0x00 (0000ms, 55440ms total)
T1B84 11016:554 JLINK_WriteReg(R3, 0x00000000)  returns 0x00 (0000ms, 55440ms total)
T1B84 11016:554 JLINK_WriteReg(R4, 0x00000000)  returns 0x00 (0000ms, 55440ms total)
T1B84 11016:554 JLINK_WriteReg(R5, 0x00000000)  returns 0x00 (0000ms, 55440ms total)
T1B84 11016:554 JLINK_WriteReg(R6, 0x00000000)  returns 0x00 (0000ms, 55440ms total)
T1B84 11016:554 JLINK_WriteReg(R7, 0x00000000)  returns 0x00 (0000ms, 55440ms total)
T1B84 11016:554 JLINK_WriteReg(R8, 0x00000000)  returns 0x00 (0000ms, 55440ms total)
T1B84 11016:554 JLINK_WriteReg(R9, 0x200006E0)  returns 0x00 (0000ms, 55440ms total)
T1B84 11016:554 JLINK_WriteReg(R10, 0x00000000)  returns 0x00 (0000ms, 55440ms total)
T1B84 11016:554 JLINK_WriteReg(R11, 0x00000000)  returns 0x00 (0000ms, 55440ms total)
T1B84 11016:554 JLINK_WriteReg(R12, 0x00000000)  returns 0x00 (0001ms, 55441ms total)
T1B84 11016:555 JLINK_WriteReg(R13 (SP), 0x20004000)  returns 0x00 (0000ms, 55441ms total)
T1B84 11016:555 JLINK_WriteReg(R14, 0x20000001)  returns 0x00 (0000ms, 55441ms total)
T1B84 11016:555 JLINK_WriteReg(R15 (PC), 0x2000020C)  returns 0x00 (0000ms, 55441ms total)
T1B84 11016:555 JLINK_WriteReg(XPSR, 0x01000000)  returns 0x00 (0000ms, 55441ms total)
T1B84 11016:555 JLINK_WriteReg(MSP, 0x20004000)  returns 0x00 (0000ms, 55441ms total)
T1B84 11016:555 JLINK_WriteReg(PSP, 0x20004000)  returns 0x00 (0000ms, 55441ms total)
T1B84 11016:555 JLINK_WriteReg(CFBP, 0x00000000)  returns 0x00 (0000ms, 55441ms total)
T1B84 11016:555 JLINK_SetBPEx(Addr = 0x20000000, Type = 0xFFFFFFF2)  returns 0x00000010 (0000ms, 55441ms total)
T1B84 11016:555 JLINK_Go() -- CPU_ReadMem(4 bytes @ 0xE0001000) (0007ms, 55448ms total)
T1B84 11016:562 JLINK_IsHalted()  returns FALSE (0001ms, 55449ms total)
T1B84 11016:574 JLINK_IsHalted()  returns FALSE (0001ms, 55449ms total)
T1B84 11016:577 JLINK_IsHalted()  returns FALSE (0001ms, 55449ms total)
T1B84 11016:580 JLINK_IsHalted()  returns FALSE (0001ms, 55449ms total)
T1B84 11016:583 JLINK_IsHalted()  returns FALSE (0001ms, 55449ms total)
T1B84 11016:586 JLINK_IsHalted()  returns FALSE (0001ms, 55449ms total)
T1B84 11016:589 JLINK_IsHalted()  returns FALSE (0001ms, 55449ms total)
T1B84 11016:592 JLINK_IsHalted()  returns FALSE (0001ms, 55449ms total)
T1B84 11016:595 JLINK_IsHalted()  returns FALSE (0001ms, 55449ms total)
T1B84 11016:598 JLINK_IsHalted()  returns FALSE (0001ms, 55449ms total)
T1B84 11016:601 JLINK_IsHalted()  returns FALSE (0001ms, 55449ms total)
T1B84 11016:604 JLINK_IsHalted()  returns FALSE (0001ms, 55449ms total)
T1B84 11016:607 JLINK_IsHalted()  returns FALSE (0001ms, 55449ms total)
T1B84 11016:610 JLINK_IsHalted()  returns FALSE (0001ms, 55449ms total)
T1B84 11016:613 JLINK_IsHalted()  returns FALSE (0001ms, 55449ms total)
T1B84 11016:621 JLINK_IsHalted()  returns FALSE (0001ms, 55449ms total)
T1B84 11016:624 JLINK_IsHalted()  returns FALSE (0001ms, 55449ms total)
T1B84 11016:627 JLINK_IsHalted()  returns FALSE (0001ms, 55449ms total)
T1B84 11016:630 JLINK_IsHalted()  returns FALSE (0001ms, 55449ms total)
T1B84 11016:633 JLINK_IsHalted() -- CPU_ReadMem(2 bytes @ 0x20000000)  returns TRUE (0008ms, 55456ms total)
T1B84 11016:641 JLINK_ReadReg(R15 (PC))  returns 0x20000000 (0000ms, 55448ms total)
T1B84 11016:641 JLINK_ClrBPEx(BPHandle = 0x00000010)  returns 0x00 (0000ms, 55448ms total)
T1B84 11016:641 JLINK_ReadReg(R0)  returns 0x00000000 (0000ms, 55448ms total)
T1B84 11016:642 JLINK_WriteMem(0x200006F4, 0x010C Bytes, ...) - Data: 01 2D 04 DD 41 19 11 F8 01 1C 30 29 07 D0 4F 45 ... -- CPU_WriteMem(268 bytes @ 0x200006F4)  returns 0x10C (0004ms, 55452ms total)
T1B84 11016:646 JLINK_WriteMem(0x20000800, 0x0400 Bytes, ...) - Data: AA F1 01 00 5F EA 00 0A 0A D1 00 F0 1F FA C0 68 ... -- CPU_WriteMem(1024 bytes @ 0x20000800)  returns 0x400 (0015ms, 55467ms total)
T1B84 11016:661 JLINK_WriteMem(0x20000C00, 0x0400 Bytes, ...) - Data: 07 00 85 46 18 B0 20 B5 FF F7 06 F8 BD E8 20 40 ... -- CPU_WriteMem(1024 bytes @ 0x20000C00)  returns 0x400 (0014ms, 55481ms total)
T1B84 11016:676 JLINK_WriteMem(0x20001000, 0x0400 Bytes, ...) - Data: A2 EB C7 42 B2 EB C7 42 61 EB 57 31 0C FB 0E F7 ... -- CPU_WriteMem(1024 bytes @ 0x20001000)  returns 0x400 (0014ms, 55495ms total)
